T7620 448972:147 SEGGER J-Link V6.18a Log File (0000ms, 338187ms total)
T7620 448972:147 DLL Compiled: Aug 11 2017 17:53:19 (0001ms, 338188ms total)
T7620 448972:147 Logging started @ 2018-09-03 14:25 (0001ms, 338188ms total)
T7620 448972:172 JLINK_ExecCommand("Device = ATSAMD21G18A", ...).   returns 0x00 (0000ms, 338188ms total)
T7620 448972:190 JLINK_ExecCommand("ProjectFile = C:\Users\Kosala.Perera\Documents\GitHub\aura-pt\aura-pt\..\libraries\LCD_JDI_LPM013M126C\example\LCD_JDI_LCD_LPM013M126C\jlink.config", ...).   returns 0x00 (0001ms, 338189ms total)
T7620 448972:207 JLINK_ExecCommand("Device = ATSAMD21G18A", ...).   returns 0x00 (0001ms, 338190ms total)
T7620 448972:208 JLINK_TIF_Select(JLINKARM_TIF_SWD)  returns 0x00 (0000ms, 338190ms total)
T7620 448972:208 JLINK_SetSpeed(4000) (0000ms, 338190ms total)
T7620 448972:208 JLINK_ResetPullsRESET(OFF) (0000ms, 338190ms total)
T7620 448972:208 JLINK_Connect() >0x10B TIF>Found SW-DP with ID 0x0BC11477 >0x0D TIF> >0x28 TIF> >0x0D TIF> >0x28 TIF> >0x10B TIF>Found SW-DP with ID 0x0BC11477 >0x0D TIF> >0x28 TIF> >0x0D TIF> >0x28 TIF> >0x0D TIF> >0x28 TIF> >0x0D TIF> >0x28 TIF> >0x0D TIF> >0x21 TIF> >0x0D TIF> >0x28 TIF>AP map detection skipped. User manually configured AP map.AP[0]: AHB-AP (IDR: Not set) >0x42 TIF> >0x28 TIF> >0x0D TIF> >0x21 TIF> >0x0D TIF> >0x21 TIF> >0x42 TIF> >0x28 TIF> >0x0D TIF> >0x28 TIF> >0x0D TIF>
 >0x28 TIF> >0x0D TIF> >0x21 TIF> >0x0D TIF> >0x21 TIF>AP[0]: Core foundAP[0]: AHB-AP ROM base: 0x41003000 >0x0D TIF> >0x28 TIF> >0x0D TIF> >0x28 TIF> >0x0D TIF> >0x28 TIF> >0x0D TIF> >0x21 TIF> >0x0D TIF> >0x21 TIF>CPUID register: 0x410CC601. Implementer code: 0x41 (ARM)Found Cortex-M0 r0p1, Little endian. -- CPU_ReadMem(4 bytes @ 0xE000EDF0) -- CPU_ReadMem(4 bytes @ 0xE0002000) -- CPU_ReadMem(4 bytes @ 0xE000EDFC) -- CPU_ReadMem(4 bytes @ 0xE0001000) -- CPU_WriteMem(4 bytes @ 0xE0001000)
CoreSight components:ROMTbl[0] @ 41003000 -- CPU_ReadMem(16 bytes @ 0x41003000) -- CPU_ReadMem(16 bytes @ 0xE00FFFF0) -- CPU_ReadMem(16 bytes @ 0xE00FFFE0)ROMTbl[0][0]: E00FF000, CID: B105100D, PID: 000BB4C0 ROM TableROMTbl[1] @ E00FF000 -- CPU_ReadMem(16 bytes @ 0xE00FF000) -- CPU_ReadMem(16 bytes @ 0xE000EFF0) -- CPU_ReadMem(16 bytes @ 0xE000EFE0)ROMTbl[1][0]: E000E000, CID: B105E00D, PID: 000BB008 SCS -- CPU_ReadMem(16 bytes @ 0xE0001FF0) -- CPU_ReadMem(16 bytes @ 0xE0001FE0)
ROMTbl[1][1]: E0001000, CID: B105E00D, PID: 000BB00A DWT -- CPU_ReadMem(16 bytes @ 0xE0002FF0) -- CPU_ReadMem(16 bytes @ 0xE0002FE0)ROMTbl[1][2]: E0002000, CID: B105E00D, PID: 000BB00B FPB -- CPU_ReadMem(16 bytes @ 0x41006FF0) -- CPU_ReadMem(16 bytes @ 0x41006FE0)ROMTbl[0][1]: 41006000, CID: B105900D, PID: 001BB932 MTB-M0+  returns 0x00 (0130ms, 338320ms total)
T7620 448972:338 JLINK_Halt()  returns 0x00 (0003ms, 338323ms total)
T7620 448972:343 JLINK_JTAG_GetDeviceID(DeviceIndex = 0)  returns 0x00 (0000ms, 338323ms total)
T7620 448972:343 JLINK_ReadMemU32(0x41002018, 0x0001 Items, ...) -- CPU_ReadMem(4 bytes @ 0x41002018) - Data: 05 03 01 10  returns 0x01 (0000ms, 338323ms total)
T6FAC 448972:352 JLINK_IsHalted()  returns TRUE (0000ms, 338323ms total)
T6FAC 448972:352 JLINK_GetMOEs(...) -- CPU_ReadMem(4 bytes @ 0xE000ED30)  returns 0x01 (0001ms, 338324ms total)
T6FAC 448972:353 JLINK_ReadReg(R15 (PC))  returns 0x00000288 (0000ms, 338324ms total)
T5360 448972:355 JLINK_EMU_GetList(InterfaceMask = 0x00000001, MaxInfos = 0x00000032) [0]: USB, S/N: 801001958  returns 0x01 (0000ms, 338324ms total)
T5360 448972:355 JLINK_EMU_GetList(InterfaceMask = 0x00000002, MaxInfos = 0x00000032)   returns 0x00 (0023ms, 338347ms total)
T7620 448972:378 JLINK_BeginDownload(Flags = 0x00) (0000ms, 338347ms total)
T7620 448972:378 JLINK_WriteMem(0x00002000, 0x3E9C Bytes, ...) - Data: 00 80 00 20 E1 32 00 00 C9 32 00 00 C9 32 00 00 ...  returns 0x3E9C (0000ms, 338347ms total)
T7620 448972:378 JLINK_WriteMem(0x00005E9C, 0x0110 Bytes, ...) - Data: 00 00 00 00 0A 08 00 00 40 42 0F 00 FF FF FF FF ...  returns 0x110 (0000ms, 338347ms total)
T7620 448972:386 JLINK_EndDownload() -- CPU_ReadMem(4 bytes @ 0x41006004) -- CPU_ReadMem(4 bytes @ 0xE000ED90) -- -------------------------------------- -- Start of determining dirty areas in flash cache -- End of determining dirty areas -- Start of preparing flash programming -- Calculating RAM usage -- RAM usage = 5088 Bytes -- Preserving CPU registers -- Preparing memory -- Preparing target -- Preserving target RAM temporarily used for programming -- Downloading RAMCode
 -- Checking target RAM & preparing RAMCode -- End of preparing flash programming -- CPU speed could not be measured. -- Start of comparing flash -- CRC check was estimated as fastest method -- Comparing range 0x2000 - 0x5FFF (64 Sectors, 16 KB), using multi-block CRC calculation -- CRC does not match for sectors 0-63 -- End of comparing flash -- Start of erasing sectors -- Erasing range 0x00002000 - 0x00005FFF (064 Sectors, 16 KB) -- End of erasing sectors -- Start of flash programming
 -- Programming range 0x00002000 - 0x00005FFF (064 Sectors, 16 KB) -- End of flash programming -- 0x2000 - 0x5FFF (064 Sectors, 16 KB) -- Start of verifying flash -- Use CRC as verify method -- Checksum is not supported by this flash bank. Switched to read back method. -- End of verifying flash -- Start of restoring -- Restoring RAMCode -- Restoring target memory -- Restore target -- Restore memory -- Restoring CPU registers -- End of restoring -- Bank 0 @ 0x00000000: 1 range affected (16384 bytes)
 -- Total time needed: 1.120s (Prepare: 0.089s, Compare: 0.284s, Erase: 0.062s, Program: 0.361s, Verify: 0.280s, Restore: 0.041s)  returns 0x4000 (1123ms, 339470ms total)
T6FAC 448973:509 JLINK_IsHalted()  returns TRUE (0000ms, 339470ms total)
T5360 448973:606 JLINK_EMU_GetList(InterfaceMask = 0x00000001, MaxInfos = 0x00000032) [0]: USB, S/N: 801001958  returns 0x01 (0000ms, 339470ms total)
T5360 448973:606 JLINK_EMU_GetList(InterfaceMask = 0x00000002, MaxInfos = 0x00000032)   returns 0x00 (0023ms, 339493ms total)
T0BE8 448973:645 JLINK_Halt()  returns 0x00 (0000ms, 339493ms total)
T0BE8 448973:645 JLINK_ReadReg(R15 (PC))  returns 0x00000288 (0000ms, 339493ms total)
T0BE8 448973:645 JLINK_ReadReg(R13 (SP))  returns 0x20002DD8 (0000ms, 339493ms total)
T0BE8 448973:649 JLINK_ReadMemHW(0x00000288, 0x0004 Bytes, ...) -- CPU_ReadMem(4 bytes @ 0x00000288) - Data: 20 48 21 49  returns 0x00 (0001ms, 339494ms total)
T0BE8 448973:650 JLINK_ReadReg(R0)  returns 0x00000000 (0000ms, 339494ms total)
T0BE8 448973:650 JLINK_ReadReg(R1)  returns 0x80000000 (0000ms, 339494ms total)
T0BE8 448973:650 JLINK_ReadReg(R2)  returns 0x05FA0004 (0000ms, 339494ms total)
T0BE8 448973:650 JLINK_ReadReg(R3)  returns 0xE000ED00 (0000ms, 339494ms total)
T0BE8 448973:650 JLINK_ReadReg(R4)  returns 0x00000048 (0000ms, 339494ms total)
T0BE8 448973:650 JLINK_ReadReg(R5)  returns 0x00000091 (0000ms, 339494ms total)
T0BE8 448973:650 JLINK_ReadReg(R6)  returns 0x00000066 (0000ms, 339494ms total)
T0BE8 448973:650 JLINK_ReadReg(R7)  returns 0x20000A30 (0000ms, 339494ms total)
T0BE8 448973:650 JLINK_ReadReg(R8)  returns 0xBEFDDFBF (0000ms, 339494ms total)
T0BE8 448973:650 JLINK_ReadReg(R9)  returns 0xBCBEFB3F (0000ms, 339494ms total)
T0BE8 448973:650 JLINK_ReadReg(R10)  returns 0xEFD7DFF7 (0000ms, 339494ms total)
T0BE8 448973:650 JLINK_ReadReg(R11)  returns 0x72CFE75D (0000ms, 339494ms total)
T0BE8 448973:650 JLINK_ReadReg(R12)  returns 0x00003267 (0000ms, 339494ms total)
T0BE8 448973:650 JLINK_ReadReg(R13 (SP))  returns 0x20002DD8 (0000ms, 339494ms total)
T0BE8 448973:650 JLINK_ReadReg(R14)  returns 0x000044CF (0000ms, 339494ms total)
T0BE8 448973:650 JLINK_ReadReg(R15 (PC))  returns 0x00000288 (0000ms, 339494ms total)
T0BE8 448973:650 JLINK_ReadReg(XPSR)  returns 0x81000000 (0000ms, 339494ms total)
T0BE8 448973:650 JLINK_ReadReg(MSP)  returns 0x20002DD8 (0000ms, 339494ms total)
T0BE8 448973:650 JLINK_ReadReg(PSP)  returns 0xE7FDBDFC (0000ms, 339494ms total)
T0BE8 448973:650 JLINK_ReadReg(PRIMASK)  returns 0x00000000 (0000ms, 339494ms total)
T0BE8 448973:650 JLINK_ReadReg(BASEPRI)  returns 0x00000000 (0000ms, 339494ms total)
T0BE8 448973:650 JLINK_ReadReg(FAULTMASK)  returns 0x00000000 (0000ms, 339494ms total)
T0BE8 448973:650 JLINK_ReadReg(CONTROL)  returns 0x00000000 (0000ms, 339494ms total)
T0BE8 448973:650 JLINK_ReadMemHW(0x00000288, 0x0002 Bytes, ...) -- CPU_ReadMem(2 bytes @ 0x00000288) - Data: 20 48  returns 0x00 (0001ms, 339495ms total)
T0BE8 448973:664 JLINK_ReadReg(R0)  returns 0x00000000 (0000ms, 339495ms total)
T0BE8 448973:664 JLINK_ReadReg(R1)  returns 0x80000000 (0000ms, 339495ms total)
T0BE8 448973:664 JLINK_ReadReg(R2)  returns 0x05FA0004 (0001ms, 339496ms total)
T0BE8 448973:665 JLINK_ReadReg(R3)  returns 0xE000ED00 (0000ms, 339496ms total)
T0BE8 448973:665 JLINK_ReadReg(R4)  returns 0x00000048 (0000ms, 339496ms total)
T0BE8 448973:665 JLINK_ReadReg(R5)  returns 0x00000091 (0000ms, 339496ms total)
T0BE8 448973:665 JLINK_ReadReg(R6)  returns 0x00000066 (0000ms, 339496ms total)
T0BE8 448973:665 JLINK_ReadReg(R7)  returns 0x20000A30 (0000ms, 339496ms total)
T0BE8 448973:665 JLINK_ReadReg(R8)  returns 0xBEFDDFBF (0000ms, 339496ms total)
T0BE8 448973:665 JLINK_ReadReg(R9)  returns 0xBCBEFB3F (0000ms, 339496ms total)
T0BE8 448973:665 JLINK_ReadReg(R10)  returns 0xEFD7DFF7 (0000ms, 339496ms total)
T0BE8 448973:665 JLINK_ReadReg(R11)  returns 0x72CFE75D (0000ms, 339496ms total)
T0BE8 448973:665 JLINK_ReadReg(R12)  returns 0x00003267 (0000ms, 339496ms total)
T0BE8 448973:665 JLINK_ReadReg(R13 (SP))  returns 0x20002DD8 (0000ms, 339496ms total)
T0BE8 448973:665 JLINK_ReadReg(R14)  returns 0x000044CF (0000ms, 339496ms total)
T0BE8 448973:665 JLINK_ReadReg(R15 (PC))  returns 0x00000288 (0000ms, 339496ms total)
T0BE8 448973:665 JLINK_ReadReg(XPSR)  returns 0x81000000 (0000ms, 339496ms total)
T0BE8 448973:665 JLINK_ReadReg(MSP)  returns 0x20002DD8 (0000ms, 339496ms total)
T0BE8 448973:665 JLINK_ReadReg(PSP)  returns 0xE7FDBDFC (0000ms, 339496ms total)
T0BE8 448973:665 JLINK_ReadReg(PRIMASK)  returns 0x00000000 (0000ms, 339496ms total)
T0BE8 448973:665 JLINK_ReadReg(BASEPRI)  returns 0x00000000 (0000ms, 339496ms total)
T0BE8 448973:665 JLINK_ReadReg(FAULTMASK)  returns 0x00000000 (0000ms, 339496ms total)
T0BE8 448973:665 JLINK_ReadReg(CONTROL)  returns 0x00000000 (0000ms, 339496ms total)
T0BE8 448973:665 JLINK_ReadMemHW(0x00000288, 0x0004 Bytes, ...) -- CPU_ReadMem(4 bytes @ 0x00000288) - Data: 20 48 21 49  returns 0x00 (0001ms, 339497ms total)
T0BE8 448973:666 JLINK_ReadMemHW(0x00000288, 0x0002 Bytes, ...) -- CPU_ReadMem(2 bytes @ 0x00000288) - Data: 20 48  returns 0x00 (0000ms, 339497ms total)
T6FAC 448973:709 JLINK_IsHalted()  returns TRUE (0000ms, 339497ms total)
T0BE8 448973:745 JLINK_SetResetType(JLINKARM_CM3_RESET_TYPE_NORMAL)  returns JLINKARM_CM3_RESET_TYPE_NORMAL (0000ms, 339497ms total)
T0BE8 448973:745 JLINK_Reset() -- CPU_ReadMem(4 bytes @ 0x20000000) -- CPU_WriteMem(4 bytes @ 0x20000000) -- CPU_ReadMem(4 bytes @ 0xE000EDFC) -- CPU_WriteMem(4 bytes @ 0xE000EDFC) -- CPU_WriteMem(4 bytes @ 0xE000ED0C) -- CPU_ReadMem(4 bytes @ 0xE000EDF0) -- CPU_ReadMem(4 bytes @ 0x41002100) -- CPU is running -- CPU_WriteMem(4 bytes @ 0x41002100) -- CPU_ReadMem(4 bytes @ 0x41002100) -- CPU is running -- CPU_WriteMem(4 bytes @ 0xE000EDFC) -- CPU_WriteMem(4 bytes @ 0xE0002000)
 -- CPU_ReadMem(4 bytes @ 0xE000EDFC) -- CPU_ReadMem(4 bytes @ 0xE0001000) -- CPU_WriteMem(4 bytes @ 0xE0001000) (0012ms, 339509ms total)
T6FAC 448973:757 JLINK_IsHalted()  returns TRUE (0000ms, 339509ms total)
T6FAC 448973:757 JLINK_GetMOEs(...) -- CPU_ReadMem(4 bytes @ 0xE000ED30)  returns 0x01 (0001ms, 339510ms total)
T6FAC 448973:758 JLINK_ReadReg(R15 (PC))  returns 0x00000288 (0000ms, 339510ms total)
T0BE8 448973:767 JLINK_ReadReg(R15 (PC))  returns 0x00000288 (0000ms, 339510ms total)
T0BE8 448973:767 JLINK_ReadReg(R13 (SP))  returns 0x20002DD8 (0000ms, 339510ms total)
T0BE8 448973:767 JLINK_ReadMemHW(0x00000288, 0x0004 Bytes, ...) -- CPU_ReadMem(4 bytes @ 0x00000288) - Data: 20 48 21 49  returns 0x00 (0001ms, 339511ms total)
T0BE8 448973:768 JLINK_ReadReg(R0)  returns 0x00000000 (0000ms, 339511ms total)
T0BE8 448973:768 JLINK_ReadReg(R1)  returns 0x41004004 (0000ms, 339511ms total)
T0BE8 448973:768 JLINK_ReadReg(R2)  returns 0x00004000 (0000ms, 339511ms total)
T0BE8 448973:768 JLINK_ReadReg(R3)  returns 0x00008000 (0000ms, 339511ms total)
T0BE8 448973:768 JLINK_ReadReg(R4)  returns 0x20000380 (0000ms, 339511ms total)
T0BE8 448973:768 JLINK_ReadReg(R5)  returns 0xFFFFFFFF (0000ms, 339511ms total)
T0BE8 448973:768 JLINK_ReadReg(R6)  returns 0x00000000 (0000ms, 339511ms total)
T0BE8 448973:768 JLINK_ReadReg(R7)  returns 0x20000165 (0000ms, 339511ms total)
T0BE8 448973:768 JLINK_ReadReg(R8)  returns 0xBEFDDFBF (0000ms, 339511ms total)
T0BE8 448973:768 JLINK_ReadReg(R9)  returns 0xBCBEFB3F (0000ms, 339511ms total)
T0BE8 448973:768 JLINK_ReadReg(R10)  returns 0xEFD7DFF7 (0000ms, 339511ms total)
T0BE8 448973:768 JLINK_ReadReg(R11)  returns 0x72CFE75D (0000ms, 339511ms total)
T0BE8 448973:768 JLINK_ReadReg(R12)  returns 0x00003267 (0000ms, 339511ms total)
T0BE8 448973:768 JLINK_ReadReg(R13 (SP))  returns 0x20002DD8 (0000ms, 339511ms total)
T0BE8 448973:768 JLINK_ReadReg(R14)  returns 0x2000015D (0000ms, 339511ms total)
T0BE8 448973:768 JLINK_ReadReg(R15 (PC))  returns 0x00000288 (0000ms, 339511ms total)
T0BE8 448973:768 JLINK_ReadReg(XPSR)  returns 0x41000000 (0001ms, 339512ms total)
T0BE8 448973:769 JLINK_ReadReg(MSP)  returns 0x20002DD8 (0000ms, 339512ms total)
T0BE8 448973:769 JLINK_ReadReg(PSP)  returns 0xE7FDBDFC (0000ms, 339512ms total)
T0BE8 448973:769 JLINK_ReadReg(PRIMASK)  returns 0x00000000 (0000ms, 339512ms total)
T0BE8 448973:769 JLINK_ReadReg(BASEPRI)  returns 0x00000000 (0000ms, 339512ms total)
T0BE8 448973:769 JLINK_ReadReg(FAULTMASK)  returns 0x00000000 (0000ms, 339512ms total)
T0BE8 448973:769 JLINK_ReadReg(CONTROL)  returns 0x00000000 (0000ms, 339512ms total)
T0BE8 448973:769 JLINK_ReadMemHW(0x00000288, 0x0002 Bytes, ...) -- CPU_ReadMem(2 bytes @ 0x00000288) - Data: 20 48  returns 0x00 (0000ms, 339512ms total)
T0BE8 448973:781 JLINK_ReadMem (0x2000015C, 0x0004 Bytes, ...) -- CPU_ReadMem(64 bytes @ 0x20000140) -- Updating C cache (64 bytes @ 0x20000140) -- Read from C cache (4 bytes @ 0x2000015C) - Data: 00 00 00 00  returns 0x00 (0001ms, 339513ms total)
T0BE8 448973:783 JLINK_ReadMem (0x20000150, 0x0002 Bytes, ...) -- Read from C cache (2 bytes @ 0x20000150) - Data: 00 00  returns 0x00 (0000ms, 339513ms total)
T0BE8 448973:783 JLINK_ReadMem (0x20000152, 0x0002 Bytes, ...) -- Read from C cache (2 bytes @ 0x20000152) - Data: 00 00  returns 0x00 (0000ms, 339513ms total)
T0BE8 448973:783 JLINK_ReadMem (0x20000154, 0x0002 Bytes, ...) -- Read from C cache (2 bytes @ 0x20000154) - Data: 00 00  returns 0x00 (0000ms, 339513ms total)
T0BE8 448973:783 JLINK_ReadMem (0x20000156, 0x0002 Bytes, ...) -- Read from C cache (2 bytes @ 0x20000156) - Data: 00 00  returns 0x00 (0000ms, 339513ms total)
T0BE8 448973:783 JLINK_ReadMem (0x20000158, 0x0002 Bytes, ...) -- Read from C cache (2 bytes @ 0x20000158) - Data: 00 00  returns 0x00 (0000ms, 339513ms total)
T0BE8 448973:784 JLINK_ReadMem (0x2000015A, 0x0002 Bytes, ...) -- Read from C cache (2 bytes @ 0x2000015A) - Data: 00 00  returns 0x00 (0000ms, 339513ms total)
T0BE8 448973:784 JLINK_ReadMem (0x2000015C, 0x0004 Bytes, ...) -- Read from C cache (4 bytes @ 0x2000015C) - Data: 00 00 00 00  returns 0x00 (0000ms, 339513ms total)
T0BE8 448973:784 JLINK_ReadMem (0x20000150, 0x0002 Bytes, ...) -- Read from C cache (2 bytes @ 0x20000150) - Data: 00 00  returns 0x00 (0000ms, 339513ms total)
T0BE8 448973:784 JLINK_ReadMem (0x20000152, 0x0002 Bytes, ...) -- Read from C cache (2 bytes @ 0x20000152) - Data: 00 00  returns 0x00 (0000ms, 339513ms total)
T0BE8 448973:784 JLINK_ReadMem (0x20000154, 0x0002 Bytes, ...) -- Read from C cache (2 bytes @ 0x20000154) - Data: 00 00  returns 0x00 (0000ms, 339513ms total)
T0BE8 448973:785 JLINK_ReadMem (0x20000156, 0x0002 Bytes, ...) -- Read from C cache (2 bytes @ 0x20000156) - Data: 00 00  returns 0x00 (0000ms, 339513ms total)
T0BE8 448973:785 JLINK_ReadMem (0x20000158, 0x0002 Bytes, ...) -- Read from C cache (2 bytes @ 0x20000158) - Data: 00 00  returns 0x00 (0000ms, 339513ms total)
T0BE8 448973:785 JLINK_ReadMem (0x2000015A, 0x0002 Bytes, ...) -- Read from C cache (2 bytes @ 0x2000015A) - Data: 00 00  returns 0x00 (0000ms, 339513ms total)
T0BE8 448973:805 JLINK_ReadMemHW(0x0000388C, 0x0001 Bytes, ...) -- CPU_ReadMem(1 bytes @ 0x0000388C) - Data: 10  returns 0x00 (0000ms, 339513ms total)
T0BE8 448973:846 JLINK_ReadReg(R15 (PC))  returns 0x00000288 (0000ms, 339513ms total)
T0BE8 448973:846 JLINK_GetNumBPUnits(Type = 0xFFFFFF02)  returns 0x04 (0000ms, 339513ms total)
T0BE8 448973:846 JLINK_SetBPEx(Addr = 0x0000388C, Type = 0xFFFFFFF2)  returns 0x000000C7 (0000ms, 339513ms total)
T0BE8 448973:846 JLINK_GetBPInfo(BPHandle = 199)  returns 0x00 (0000ms, 339513ms total)
T0BE8 448973:847 JLINK_Go() -- CPU_WriteMem(4 bytes @ 0xE0002000) -- CPU_ReadMem(4 bytes @ 0xE0001000) -- CPU_WriteMem(4 bytes @ 0xE000ED30) -- CPU_WriteMem(4 bytes @ 0xE0001000) -- CPU_WriteMem(4 bytes @ 0xE0002008) -- CPU_WriteMem(4 bytes @ 0xE000200C) -- CPU_WriteMem(4 bytes @ 0xE0002010) -- CPU_WriteMem(4 bytes @ 0xE0002014) -- CPU_WriteMem(4 bytes @ 0xE0001004) (0005ms, 339518ms total)
T6FAC 448973:852 JLINK_IsHalted() -- CPU_ReadMem(4 bytes @ 0x41002100)  returns FALSE (0001ms, 339519ms total)
T6FAC 448973:895 JLINK_IsHalted() -- CPU_ReadMem(4 bytes @ 0x41002100)  returns FALSE (0002ms, 339520ms total)
T6FAC 448973:995 JLINK_IsHalted() -- CPU_ReadMem(4 bytes @ 0x41002100)  returns FALSE (0001ms, 339519ms total)
T6FAC 448974:198 JLINK_IsHalted() -- CPU_ReadMem(4 bytes @ 0x41002100)  returns FALSE (0001ms, 339519ms total)
T6FAC 448974:399 JLINK_IsHalted() -- CPU_ReadMem(4 bytes @ 0x41002100)  returns FALSE (0001ms, 339519ms total)
T6FAC 448974:600 JLINK_IsHalted() -- CPU_ReadMem(4 bytes @ 0x41002100)  returns FALSE (0002ms, 339520ms total)
T6FAC 448974:802 JLINK_IsHalted() -- CPU_ReadMem(4 bytes @ 0x41002100)  returns FALSE (0001ms, 339519ms total)
T5360 448974:856 JLINK_EMU_GetList(InterfaceMask = 0x00000001, MaxInfos = 0x00000032) [0]: USB, S/N: 801001958  returns 0x01 (0000ms, 339518ms total)
T5360 448974:857 JLINK_EMU_GetList(InterfaceMask = 0x00000002, MaxInfos = 0x00000032)   returns 0x00 (0023ms, 339541ms total)
T6FAC 448975:003 JLINK_IsHalted()  returns TRUE (0003ms, 339544ms total)
T6FAC 448975:006 JLINK_GetMOEs(...) -- CPU_ReadMem(4 bytes @ 0xE000ED30)  returns 0x01 (0001ms, 339542ms total)
T6FAC 448975:007 JLINK_ReadReg(R15 (PC))  returns 0x0000388C (0000ms, 339542ms total)
T0BE8 448975:014 JLINK_ReadReg(R15 (PC))  returns 0x0000388C (0000ms, 339542ms total)
T0BE8 448975:014 JLINK_ReadReg(R13 (SP))  returns 0x20007FF0 (0000ms, 339542ms total)
T0BE8 448975:015 JLINK_ReadMemHW(0x0000388C, 0x0004 Bytes, ...) -- CPU_ReadMem(4 bytes @ 0x0000388C) - Data: 10 B5 FF F7  returns 0x00 (0001ms, 339543ms total)
T0BE8 448975:040 JLINK_WriteU32(0xE000EDFC, 0x01000000) -- CPU_WriteMem(4 bytes @ 0xE000EDFC)  returns 0x00 (0001ms, 339544ms total)
T0BE8 448975:041 JLINK_ReadMem (0xE0001000, 0x0004 Bytes, ...) -- CPU_ReadMem(4 bytes @ 0xE0001000) - Data: 00 00 00 20  returns 0x00 (0001ms, 339545ms total)
T0BE8 448975:042 JLINK_WriteU32(0xE0001000, 0x20000001)  returns 0x00 (0000ms, 339545ms total)
T0BE8 448975:042 JLINK_WriteU32(0xE0001028, 0x00000100)  returns 0x00 (0000ms, 339545ms total)
T0BE8 448975:042 JLINK_ReadMem (0xE0001028, 0x0004 Bytes, ...) -- CPU_WriteMem(4 bytes @ 0xE0001028) -- CPU_ReadMem(4 bytes @ 0xE0001028) - Data: 00 00 00 00  returns 0x00 (0002ms, 339547ms total)
T0BE8 448975:044 JLINK_WriteU32(0xE0001024, 0x0000001F)  returns 0x00 (0000ms, 339547ms total)
T0BE8 448975:044 JLINK_ReadMem (0xE0001024, 0x0004 Bytes, ...) -- CPU_WriteMem(4 bytes @ 0xE0001024) -- CPU_ReadMem(4 bytes @ 0xE0001024) - Data: 1F 00 00 00  returns 0x00 (0002ms, 339549ms total)
T0BE8 448975:046 JLINK_WriteU32(0xE0001038, 0x00000100)  returns 0x00 (0000ms, 339549ms total)
T0BE8 448975:046 JLINK_ReadMem (0xE0001038, 0x0004 Bytes, ...) -- CPU_WriteMem(4 bytes @ 0xE0001038) -- CPU_ReadMem(4 bytes @ 0xE0001038) - Data: 00 00 00 00  returns 0x00 (0001ms, 339550ms total)
T0BE8 448975:047 JLINK_WriteU32(0xE0001034, 0x0000001F)  returns 0x00 (0000ms, 339550ms total)
T0BE8 448975:047 JLINK_ReadMem (0xE0001034, 0x0004 Bytes, ...) -- CPU_WriteMem(4 bytes @ 0xE0001034) -- CPU_ReadMem(4 bytes @ 0xE0001034) - Data: 1F 00 00 00  returns 0x00 (0002ms, 339552ms total)
T0BE8 448975:049 JLINK_WriteU32(0xE0001020, 0x00000000)  returns 0x00 (0000ms, 339552ms total)
T0BE8 448975:049 JLINK_WriteU32(0xE0001024, 0x00000000)  returns 0x00 (0000ms, 339552ms total)
T0BE8 448975:049 JLINK_WriteU32(0xE0001028, 0x00000000)  returns 0x00 (0000ms, 339552ms total)
T0BE8 448975:049 JLINK_WriteU32(0xE0001030, 0x00000000)  returns 0x00 (0000ms, 339552ms total)
T0BE8 448975:049 JLINK_WriteU32(0xE0001034, 0x00000000)  returns 0x00 (0000ms, 339552ms total)
T0BE8 448975:049 JLINK_WriteU32(0xE0001038, 0x00000000)  returns 0x00 (0000ms, 339552ms total)
T0BE8 448975:049 JLINK_GetBPInfo(BPHandle = 199)  returns 0x00 (0000ms, 339552ms total)
T0BE8 448975:049 JLINK_ClrBPEx(BPHandle = 0x000000C7)  returns 0x00 (0000ms, 339552ms total)
T0BE8 448975:050 JLINK_ReadReg(R15 (PC))  returns 0x0000388C (0000ms, 339552ms total)
T0BE8 448975:050 JLINK_Go() -- CPU_WriteMem(4 bytes @ 0xE0001000) -- CPU_ReadMem(4 bytes @ 0xE0001000) -- CPU_WriteMem(4 bytes @ 0xE000ED30) -- CPU_WriteMem(4 bytes @ 0xE0001000) -- CPU_WriteMem(4 bytes @ 0xE0001020) -- CPU_WriteMem(4 bytes @ 0xE0001030) -- CPU_WriteMem(4 bytes @ 0xE0001024) -- CPU_WriteMem(4 bytes @ 0xE0001034) -- CPU_WriteMem(4 bytes @ 0xE0001028) -- CPU_WriteMem(4 bytes @ 0xE0001038) -- CPU_WriteMem(4 bytes @ 0xE0002008) (0006ms, 339558ms total)
T6FAC 448975:056 JLINK_IsHalted() -- CPU_ReadMem(4 bytes @ 0x41002100)  returns FALSE (0001ms, 339559ms total)
T6FAC 448975:097 JLINK_IsHalted() -- CPU_ReadMem(4 bytes @ 0x41002100)  returns FALSE (0001ms, 339559ms total)
T6FAC 448975:258 JLINK_IsHalted() -- CPU_ReadMem(4 bytes @ 0x41002100)  returns FALSE (0001ms, 339559ms total)
T6FAC 448975:459 JLINK_IsHalted() -- CPU_ReadMem(4 bytes @ 0x41002100)  returns FALSE (0001ms, 339560ms total)
T6FAC 448975:660 JLINK_IsHalted() -- CPU_ReadMem(4 bytes @ 0x41002100)  returns FALSE (0001ms, 339560ms total)
T6FAC 448975:861 JLINK_IsHalted() -- CPU_ReadMem(4 bytes @ 0x41002100)  returns FALSE (0002ms, 339561ms total)
T6FAC 448976:095 JLINK_IsHalted() -- CPU_ReadMem(4 bytes @ 0x41002100)  returns FALSE (0001ms, 339560ms total)
T5360 448976:173 JLINK_EMU_GetList(InterfaceMask = 0x00000001, MaxInfos = 0x00000032) [0]: USB, S/N: 801001958  returns 0x01 (0001ms, 339560ms total)
T5360 448976:174 JLINK_EMU_GetList(InterfaceMask = 0x00000002, MaxInfos = 0x00000032)   returns 0x00 (0023ms, 339583ms total)
T6FAC 448976:296 JLINK_IsHalted() -- CPU_ReadMem(4 bytes @ 0x41002100)  returns FALSE (0001ms, 339584ms total)
T6FAC 448976:497 JLINK_IsHalted() -- CPU_ReadMem(4 bytes @ 0x41002100)  returns FALSE (0001ms, 339584ms total)
T6FAC 448976:698 JLINK_IsHalted() -- CPU_ReadMem(4 bytes @ 0x41002100)  returns FALSE (0001ms, 339585ms total)
T6FAC 448976:899 JLINK_IsHalted() -- CPU_ReadMem(4 bytes @ 0x41002100)  returns FALSE (0001ms, 339585ms total)
T6FAC 448977:100 JLINK_IsHalted() -- CPU_ReadMem(4 bytes @ 0x41002100)  returns FALSE (0001ms, 339585ms total)
T6FAC 448977:301 JLINK_IsHalted() -- CPU_ReadMem(4 bytes @ 0x41002100)  returns FALSE (0001ms, 339585ms total)
T6FAC 448977:502 JLINK_IsHalted() -- CPU_ReadMem(4 bytes @ 0x41002100)  returns FALSE (0002ms, 339586ms total)
T5360 448977:593 JLINK_EMU_GetList(InterfaceMask = 0x00000001, MaxInfos = 0x00000032) [0]: USB, S/N: 801001958  returns 0x01 (0000ms, 339584ms total)
T5360 448977:593 JLINK_EMU_GetList(InterfaceMask = 0x00000002, MaxInfos = 0x00000032)   returns 0x00 (0023ms, 339607ms total)
T6FAC 448977:704 JLINK_IsHalted() -- CPU_ReadMem(4 bytes @ 0x41002100)  returns FALSE (0002ms, 339609ms total)
T6FAC 448977:906 JLINK_IsHalted() -- CPU_ReadMem(4 bytes @ 0x41002100)  returns FALSE (0001ms, 339608ms total)
T6FAC 448978:107 JLINK_IsHalted() -- CPU_ReadMem(4 bytes @ 0x41002100)  returns FALSE (0001ms, 339608ms total)
T6FAC 448978:308 JLINK_IsHalted() -- CPU_ReadMem(4 bytes @ 0x41002100)  returns FALSE (0001ms, 339608ms total)
T6FAC 448978:509 JLINK_IsHalted() -- CPU_ReadMem(4 bytes @ 0x41002100)  returns FALSE (0001ms, 339608ms total)
T6FAC 448978:710 JLINK_IsHalted() -- CPU_ReadMem(4 bytes @ 0x41002100)  returns FALSE (0001ms, 339608ms total)
T6FAC 448978:911 JLINK_IsHalted() -- CPU_ReadMem(4 bytes @ 0x41002100)  returns FALSE (0001ms, 339608ms total)
